 v-sweep         v(gate)         i(Vds)         
 0.00000000e+00  3.90126784e-07 -9.24240776e-08 
 1.00000000e-02  2.05970453e-02 -1.16136599e-07 
 2.00000000e-02  1.53647345e-02 -1.46495858e-07 
 3.00000000e-02 -6.64461908e-01 -1.85252693e-07 
 4.00000000e-02  5.01470262e-02 -2.34592375e-07 
 5.00000000e-02  7.78690068e-02 -2.97231445e-07 
 6.00000000e-02  4.80006678e-02 -3.76526609e-07 
 7.00000000e-02  5.60006566e-02 -4.76637860e-07 
 8.00000000e-02  6.40008003e-02 -6.02627558e-07 
 9.00000000e-02  7.19997453e-02 -7.60697738e-07 
 1.00000000e-01  8.00015752e-02 -9.58366719e-07 
 1.10000000e-01  8.80002311e-02 -1.20470637e-06 
 1.20000000e-01  9.59989144e-02 -1.51060026e-06 
 1.30000000e-01  1.03998687e-01 -1.88902770e-06 
 1.40000000e-01  1.12000900e-01 -2.35537095e-06 
 1.50000000e-01  1.20002611e-01 -2.92774014e-06 
 1.60000000e-01  1.28000819e-01 -3.62730573e-06 
 1.70000000e-01  1.36001451e-01 -4.47862180e-06 
 1.80000000e-01  1.44000801e-01 -5.50991459e-06 
 1.90000000e-01  1.52002804e-01 -6.75329969e-06 
 2.00000000e-01  1.60001961e-01 -8.24487975e-06 
 2.10000000e-01  1.68003143e-01 -1.00246644e-05 
 2.20000000e-01  1.76001642e-01 -1.21362502e-05 
 2.30000000e-01  1.84004319e-01 -1.46262015e-05 
 2.40000000e-01  1.92005664e-01 -1.75430950e-05 
 2.50000000e-01  2.00003527e-01 -2.09362170e-05 
 2.60000000e-01  2.08006601e-01 -2.48539543e-05 
 2.70000000e-01  2.16003808e-01 -2.93419633e-05 
 2.80000000e-01  2.24010276e-01 -3.44412521e-05 
 2.90000000e-01  2.32011949e-01 -4.01863395e-05 
 3.00000000e-01  2.40007161e-01 -4.66036624e-05 
 3.10000000e-01  2.48011582e-01 -5.37103835e-05 
 3.20000000e-01  2.56006421e-01 -6.15137059e-05 
 3.30000000e-01  2.64015811e-01 -7.00107429e-05 
 3.40000000e-01  2.72014477e-01 -7.91157501e-05 
 3.50000000e-01  2.80023661e-01 -8.89536403e-05 
 3.60000000e-01  2.88025098e-01 -9.94108542e-05 
 3.70000000e-01  2.96021302e-01 -1.10451452e-04 
 3.80000000e-01  3.04024057e-01 -1.22034291e-04 
 3.90000000e-01  3.12032264e-01 -1.34115527e-04 
 4.00000000e-01  3.20031105e-01 -1.46650052e-04 
 4.10000000e-01  3.28030120e-01 -1.59592749e-04 
 4.20000000e-01  3.36035228e-01 -1.72899524e-04 
 4.30000000e-01  3.44037087e-01 -1.86528109e-04 
 4.40000000e-01  3.52038916e-01 -2.00438651e-04 
 4.50000000e-01  3.60044349e-01 -2.14594107e-04 
 4.60000000e-01  3.68048223e-01 -2.28960461e-04 
 4.70000000e-01  3.76050655e-01 -2.43506821e-04 
 4.80000000e-01  3.84061527e-01 -2.58205394e-04 
 4.90000000e-01  3.92054538e-01 -2.73031387e-04 
 5.00000000e-01  4.00054135e-01 -2.87962853e-04 
 5.10000000e-01  4.08054392e-01 -3.02980495e-04 
 5.20000000e-01  4.16062382e-01 -3.18067455e-04 
 5.30000000e-01  4.24066409e-01 -3.33209088e-04 
 5.40000000e-01  4.32075908e-01 -3.48392741e-04 
 5.50000000e-01  4.40077228e-01 -3.63607537e-04 
 5.60000000e-01  4.48078603e-01 -3.78844174e-04 
 5.70000000e-01  4.56082717e-01 -3.94094731e-04 
 5.80000000e-01  4.64075504e-01 -4.09352494e-04 
 5.90000000e-01  4.72091050e-01 -4.24611804e-04 
 6.00000000e-01  4.80084399e-01 -4.39867908e-04 
 6.10000000e-01  4.88097093e-01 -4.55116839e-04 
 6.20000000e-01  4.96091161e-01 -4.70355300e-04 
 6.30000000e-01  5.04099418e-01 -4.85580571e-04 
 6.40000000e-01  5.12109154e-01 -5.00790419e-04 
 6.50000000e-01  5.20103969e-01 -5.15983025e-04 
 6.60000000e-01  5.28101306e-01 -5.31156922e-04 
 6.70000000e-01  5.36110179e-01 -5.46310936e-04 
 6.80000000e-01  5.44101941e-01 -5.61444140e-04 
 6.90000000e-01  5.52120122e-01 -5.76555814e-04 
 7.00000000e-01  5.60130016e-01 -5.91645409e-04 
 7.10000000e-01  5.68118317e-01 -6.06712519e-04 
 7.20000000e-01  5.76124247e-01 -6.21756851e-04 
 7.30000000e-01  5.84142923e-01 -6.36778212e-04 
 7.40000000e-01  5.92130556e-01 -6.51776482e-04 
 7.50000000e-01  6.00139467e-01 -6.66751607e-04 
 7.60000000e-01  6.08133224e-01 -6.81703580e-04 
 7.70000000e-01  6.16144720e-01 -6.96632436e-04 
 7.80000000e-01  6.24150074e-01 -7.11538238e-04 
 7.90000000e-01  6.32140968e-01 -7.26421074e-04 
 8.00000000e-01  6.40156845e-01 -7.41281050e-04 
 8.10000000e-01  6.48155017e-01 -7.56118282e-04 
 8.20000000e-01  6.56149649e-01 -7.70932898e-04 
 8.30000000e-01  6.64157973e-01 -7.85725028e-04 
 8.40000000e-01  6.72167892e-01 -8.00494807e-04 
 8.50000000e-01  6.80163949e-01 -8.15242369e-04 
 8.60000000e-01  6.88168030e-01 -8.29967851e-04 
 8.70000000e-01  6.96177393e-01 -8.44671382e-04 
 8.80000000e-01  7.04172764e-01 -8.59353094e-04 
 8.90000000e-01  7.12170645e-01 -8.74013110e-04 
 9.00000000e-01  7.20177322e-01 -8.88651553e-04 
 9.10000000e-01  7.28180945e-01 -9.03268539e-04 
 9.20000000e-01  7.36193218e-01 -9.17864180e-04 
 9.30000000e-01  7.44194244e-01 -9.32438583e-04 
 9.40000000e-01  7.52189566e-01 -9.46991850e-04 
 9.50000000e-01  7.60192473e-01 -9.61524078e-04 
 9.60000000e-01  7.68196009e-01 -9.76035361e-04 
 9.70000000e-01  7.76196835e-01 -9.90525786e-04 
 9.80000000e-01  7.84203691e-01 -1.00499544e-03 
 9.90000000e-01  7.92200328e-01 -1.01944439e-03 
 1.00000000e+00  8.00214352e-01 -1.03387273e-03 
 1.01000000e+00  8.08199384e-01 -1.04828052e-03 
 1.02000000e+00  8.16225268e-01 -1.06266782e-03 
 1.03000000e+00  8.24208605e-01 -1.07703471e-03 
 1.04000000e+00  8.32204007e-01 -1.09138124e-03 
 1.05000000e+00  8.40233319e-01 -1.10570748e-03 
 1.06000000e+00  8.48240747e-01 -1.12001347e-03 
 1.07000000e+00  8.56246748e-01 -1.13429928e-03 
 1.08000000e+00  8.64246696e-01 -1.14856494e-03 
 1.09000000e+00  8.72227673e-01 -1.16281051e-03 
 1.10000000e+00  8.80236499e-01 -1.17703602e-03 
 1.11000000e+00  8.88217089e-01 -1.19124154e-03 
 1.12000000e+00  8.96236682e-01 -1.20542708e-03 
 1.13000000e+00  9.04254829e-01 -1.21959270e-03 
 1.14000000e+00  9.12249868e-01 -1.23373843e-03 
 1.15000000e+00  9.20267855e-01 -1.24786431e-03 
 1.16000000e+00  9.28248100e-01 -1.26197037e-03 
 1.17000000e+00  9.36258566e-01 -1.27605664e-03 
 1.18000000e+00  9.44244300e-01 -1.29012315e-03 
 1.19000000e+00  9.52258601e-01 -1.30416993e-03 
 1.20000000e+00  9.60251982e-01 -1.31819702e-03 
